
**** 10/07/23 01:37:03 ******* PSpice 17.4.0 (Nov 2018) ******* ID# 0 ********

 ** Profile: "SCHEMATIC1-Sweep1"  [ C:\Dev\TAUV-Hardware\TAUV-Acoustics-V2\Simulation\Frontend-Design-Candidates\frontend-design-cand


 ****     CIRCUIT DESCRIPTION


******************************************************************************




** Creating circuit file "Sweep1.cir" 
** WARNING: THIS AUTOMATICALLY GENERATED FILE MAY BE OVERWRITTEN BY SUBSEQUENT SIMULATIONS

*Libraries: 
* Profile Libraries :
* Local Libraries :
* From [PSPICE NETLIST] section of C:\Users\Gleb Ryabtsev\AppData\Roaming\SPB_Data\cdssetup\OrCAD_PSpice\17.4.0\PSpice.ini file:
.lib "nom.lib" 

*Analysis directives: 
.AC DEC 100 1k 300k
.STEP LIN PARAM LVAL 0.5mH 3mH 250uH 
.OPTIONS ADVCONV
.PROBE64 V(alias(*)) I(alias(*)) W(alias(*)) D(alias(*)) NOISE(alias(*)) 
.INC "..\SCHEMATIC1.net" 



**** INCLUDING SCHEMATIC1.net ****
* source FRONTEND-DESIGN-CANDIDATES
V_V1         12V 0 12V
V_V2         0 -12V 12
V_V4         N03290 0  AC 2.5V
+SIN 0 2.5V 50k 0 0 0
X_U1         N03290 N04548 12V -12V N04690 N04348 LT1210/LT
C_C1         0 N04348  10n  TC=0,0 
R_R1         N04548 N04690  500 TC=0,0 
R_P_R1         0 P_N00154  33.4 TC=0,0 
C_P_C1         P_N00150 N04690  4.2nF  TC=0,0 
C_P_C2         0 N04690  15.9n  TC=0,0 
L_P_L1         P_N00154 P_N00150  8.9mH  
.PARAM  lval=1mh

**** RESUMING Sweep1.cir ****
.END

**** 10/07/23 01:37:03 ******* PSpice 17.4.0 (Nov 2018) ******* ID# 0 ********

 ** Profile: "SCHEMATIC1-Sweep1"  [ C:\Dev\TAUV-Hardware\TAUV-Acoustics-V2\Simulation\Frontend-Design-Candidates\frontend-design-cand


 ****     Diode MODEL PARAMETERS


******************************************************************************




               X_U1.DC         X_U1.DCC        
          IS   10.000000E-15   10.000000E-15 
         CJO                    3.000000E-12 
          VJ                     .62         
           M                     .44         


**** 10/07/23 01:37:03 ******* PSpice 17.4.0 (Nov 2018) ******* ID# 0 ********

 ** Profile: "SCHEMATIC1-Sweep1"  [ C:\Dev\TAUV-Hardware\TAUV-Acoustics-V2\Simulation\Frontend-Design-Candidates\frontend-design-cand


 ****     BJT MODEL PARAMETERS


******************************************************************************




               X_U1.QNI        X_U1.QPI        
               NPN             PNP             
       LEVEL    1               1            
          IS  100.000000E-18  100.000000E-18 
          BF  150             150            
          NF    1               1            
          BR    1               1            
          NR    1               1            
         ISS    0               0            
          RE    0               0            
          RC    0               0            
         CJE    0               0            
         VJE     .75             .75         
         CJC    0               0            
         VJC     .75             .75         
         MJC     .33             .33         
        XCJC    1               1            
         CJS    0               0            
         VJS     .75             .75         
          TF  400.000000E-12  400.000000E-12 
          KF    0               0            
          AF    1               1            
          CN    2.42            2.2          
           D     .87             .52         


**** 10/07/23 01:37:03 ******* PSpice 17.4.0 (Nov 2018) ******* ID# 0 ********

 ** Profile: "SCHEMATIC1-Sweep1"  [ C:\Dev\TAUV-Hardware\TAUV-Acoustics-V2\Simulation\Frontend-Design-Candidates\frontend-design-cand


 ****     SMALL SIGNAL BIAS SOLUTION       TEMPERATURE =   27.000 DEG C

 ****     CURRENT STEP                     PARAM LVAL =  500.0000E-06


******************************************************************************



 NODE   VOLTAGE     NODE   VOLTAGE     NODE   VOLTAGE     NODE   VOLTAGE


(  12V)   12.0000  ( -12V)  -12.0000  (N03290)    0.0000 (N04348)    -.0054     

(N04548)-252.4E-06 (N04690)    -.0054 (X_U1.9)    -.0054 (X_U1.10)     .7712    

(X_U1.11)   11.2290                   (X_U1.12)     .7642                       

(X_U1.13)    1.5338                   (X_U1.14)     .7629                       

(X_U1.15)     .7608                   (X_U1.16)     .0024                       

(X_U1.17)    -.0054                   (X_U1.18)    -.0054                       

(X_U1.3A)-115.4E-18                   (X_U1.6A)    -.0054                       

(P_N00150)    0.0000                  (P_N00154)    0.0000                      

(X_U1.110)    -.7713                  (X_U1.111)  -11.2290                      

(X_U1.112)    -.7750                  (X_U1.113)   -1.5446                      

(X_U1.114)    -.7737                  (X_U1.115)    -.7716                      

(X_U1.116)    -.0133                  (X_U1.11A)   11.2300                      

(X_U1.200)-149.4E-06                  (X_U1.111B)  -11.2300                 




    VOLTAGE SOURCE CURRENTS
    NAME         CURRENT

    V_V1        -3.420E-02
    V_V2        -3.420E-02
    V_V4        -4.517E-10

    TOTAL POWER DISSIPATION   8.21E-01  WATTS


**** 10/07/23 01:37:03 ******* PSpice 17.4.0 (Nov 2018) ******* ID# 0 ********

 ** Profile: "SCHEMATIC1-Sweep1"  [ C:\Dev\TAUV-Hardware\TAUV-Acoustics-V2\Simulation\Frontend-Design-Candidates\frontend-design-cand


 ****     SMALL SIGNAL BIAS SOLUTION       TEMPERATURE =   27.000 DEG C

 ****     CURRENT STEP                     PARAM LVAL =  750.0000E-06


******************************************************************************



 NODE   VOLTAGE     NODE   VOLTAGE     NODE   VOLTAGE     NODE   VOLTAGE


(  12V)   12.0000  ( -12V)  -12.0000  (N03290)    0.0000 (N04348)    -.0054     

(N04548)-252.4E-06 (N04690)    -.0054 (X_U1.9)    -.0054 (X_U1.10)     .7712    

(X_U1.11)   11.2290                   (X_U1.12)     .7642                       

(X_U1.13)    1.5338                   (X_U1.14)     .7629                       

(X_U1.15)     .7608                   (X_U1.16)     .0024                       

(X_U1.17)    -.0054                   (X_U1.18)    -.0054                       

(X_U1.3A)    0.0000                   (X_U1.6A)    -.0054                       

(P_N00150)    0.0000                  (P_N00154)    0.0000                      

(X_U1.110)    -.7713                  (X_U1.111)  -11.2290                      

(X_U1.112)    -.7750                  (X_U1.113)   -1.5446                      

(X_U1.114)    -.7737                  (X_U1.115)    -.7716                      

(X_U1.116)    -.0133                  (X_U1.11A)   11.2300                      

(X_U1.200)-149.4E-06                  (X_U1.111B)  -11.2300                 




    VOLTAGE SOURCE CURRENTS
    NAME         CURRENT

    V_V1        -3.420E-02
    V_V2        -3.420E-02
    V_V4        -4.517E-10

    TOTAL POWER DISSIPATION   8.21E-01  WATTS


**** 10/07/23 01:37:03 ******* PSpice 17.4.0 (Nov 2018) ******* ID# 0 ********

 ** Profile: "SCHEMATIC1-Sweep1"  [ C:\Dev\TAUV-Hardware\TAUV-Acoustics-V2\Simulation\Frontend-Design-Candidates\frontend-design-cand


 ****     SMALL SIGNAL BIAS SOLUTION       TEMPERATURE =   27.000 DEG C

 ****     CURRENT STEP                     PARAM LVAL =    1.0000E-03


******************************************************************************



 NODE   VOLTAGE     NODE   VOLTAGE     NODE   VOLTAGE     NODE   VOLTAGE


(  12V)   12.0000  ( -12V)  -12.0000  (N03290)    0.0000 (N04348)    -.0054     

(N04548)-252.4E-06 (N04690)    -.0054 (X_U1.9)    -.0054 (X_U1.10)     .7712    

(X_U1.11)   11.2290                   (X_U1.12)     .7642                       

(X_U1.13)    1.5338                   (X_U1.14)     .7629                       

(X_U1.15)     .7608                   (X_U1.16)     .0024                       

(X_U1.17)    -.0054                   (X_U1.18)    -.0054                       

(X_U1.3A)    0.0000                   (X_U1.6A)    -.0054                       

(P_N00150)    0.0000                  (P_N00154)    0.0000                      

(X_U1.110)    -.7713                  (X_U1.111)  -11.2290                      

(X_U1.112)    -.7750                  (X_U1.113)   -1.5446                      

(X_U1.114)    -.7737                  (X_U1.115)    -.7716                      

(X_U1.116)    -.0133                  (X_U1.11A)   11.2300                      

(X_U1.200)-149.4E-06                  (X_U1.111B)  -11.2300                 




    VOLTAGE SOURCE CURRENTS
    NAME         CURRENT

    V_V1        -3.420E-02
    V_V2        -3.420E-02
    V_V4        -4.517E-10

    TOTAL POWER DISSIPATION   8.21E-01  WATTS


**** 10/07/23 01:37:03 ******* PSpice 17.4.0 (Nov 2018) ******* ID# 0 ********

 ** Profile: "SCHEMATIC1-Sweep1"  [ C:\Dev\TAUV-Hardware\TAUV-Acoustics-V2\Simulation\Frontend-Design-Candidates\frontend-design-cand


 ****     SMALL SIGNAL BIAS SOLUTION       TEMPERATURE =   27.000 DEG C

 ****     CURRENT STEP                     PARAM LVAL =    1.2500E-03


******************************************************************************



 NODE   VOLTAGE     NODE   VOLTAGE     NODE   VOLTAGE     NODE   VOLTAGE


(  12V)   12.0000  ( -12V)  -12.0000  (N03290)    0.0000 (N04348)    -.0054     

(N04548)-252.4E-06 (N04690)    -.0054 (X_U1.9)    -.0054 (X_U1.10)     .7712    

(X_U1.11)   11.2290                   (X_U1.12)     .7642                       

(X_U1.13)    1.5338                   (X_U1.14)     .7629                       

(X_U1.15)     .7608                   (X_U1.16)     .0024                       

(X_U1.17)    -.0054                   (X_U1.18)    -.0054                       

(X_U1.3A)    0.0000                   (X_U1.6A)    -.0054                       

(P_N00150)    0.0000                  (P_N00154)    0.0000                      

(X_U1.110)    -.7713                  (X_U1.111)  -11.2290                      

(X_U1.112)    -.7750                  (X_U1.113)   -1.5446                      

(X_U1.114)    -.7737                  (X_U1.115)    -.7716                      

(X_U1.116)    -.0133                  (X_U1.11A)   11.2300                      

(X_U1.200)-149.4E-06                  (X_U1.111B)  -11.2300                 




    VOLTAGE SOURCE CURRENTS
    NAME         CURRENT

    V_V1        -3.420E-02
    V_V2        -3.420E-02
    V_V4        -4.517E-10

    TOTAL POWER DISSIPATION   8.21E-01  WATTS


**** 10/07/23 01:37:03 ******* PSpice 17.4.0 (Nov 2018) ******* ID# 0 ********

 ** Profile: "SCHEMATIC1-Sweep1"  [ C:\Dev\TAUV-Hardware\TAUV-Acoustics-V2\Simulation\Frontend-Design-Candidates\frontend-design-cand


 ****     SMALL SIGNAL BIAS SOLUTION       TEMPERATURE =   27.000 DEG C

 ****     CURRENT STEP                     PARAM LVAL =    1.5000E-03


******************************************************************************



 NODE   VOLTAGE     NODE   VOLTAGE     NODE   VOLTAGE     NODE   VOLTAGE


(  12V)   12.0000  ( -12V)  -12.0000  (N03290)    0.0000 (N04348)    -.0054     

(N04548)-252.4E-06 (N04690)    -.0054 (X_U1.9)    -.0054 (X_U1.10)     .7712    

(X_U1.11)   11.2290                   (X_U1.12)     .7642                       

(X_U1.13)    1.5338                   (X_U1.14)     .7629                       

(X_U1.15)     .7608                   (X_U1.16)     .0024                       

(X_U1.17)    -.0054                   (X_U1.18)    -.0054                       

(X_U1.3A)    0.0000                   (X_U1.6A)    -.0054                       

(P_N00150)    0.0000                  (P_N00154)    0.0000                      

(X_U1.110)    -.7713                  (X_U1.111)  -11.2290                      

(X_U1.112)    -.7750                  (X_U1.113)   -1.5446                      

(X_U1.114)    -.7737                  (X_U1.115)    -.7716                      

(X_U1.116)    -.0133                  (X_U1.11A)   11.2300                      

(X_U1.200)-149.4E-06                  (X_U1.111B)  -11.2300                 




    VOLTAGE SOURCE CURRENTS
    NAME         CURRENT

    V_V1        -3.420E-02
    V_V2        -3.420E-02
    V_V4        -4.517E-10

    TOTAL POWER DISSIPATION   8.21E-01  WATTS


**** 10/07/23 01:37:03 ******* PSpice 17.4.0 (Nov 2018) ******* ID# 0 ********

 ** Profile: "SCHEMATIC1-Sweep1"  [ C:\Dev\TAUV-Hardware\TAUV-Acoustics-V2\Simulation\Frontend-Design-Candidates\frontend-design-cand


 ****     SMALL SIGNAL BIAS SOLUTION       TEMPERATURE =   27.000 DEG C

 ****     CURRENT STEP                     PARAM LVAL =    1.7500E-03


******************************************************************************



 NODE   VOLTAGE     NODE   VOLTAGE     NODE   VOLTAGE     NODE   VOLTAGE


(  12V)   12.0000  ( -12V)  -12.0000  (N03290)    0.0000 (N04348)    -.0054     

(N04548)-252.4E-06 (N04690)    -.0054 (X_U1.9)    -.0054 (X_U1.10)     .7712    

(X_U1.11)   11.2290                   (X_U1.12)     .7642                       

(X_U1.13)    1.5338                   (X_U1.14)     .7629                       

(X_U1.15)     .7608                   (X_U1.16)     .0024                       

(X_U1.17)    -.0054                   (X_U1.18)    -.0054                       

(X_U1.3A)    0.0000                   (X_U1.6A)    -.0054                       

(P_N00150)    0.0000                  (P_N00154)    0.0000                      

(X_U1.110)    -.7713                  (X_U1.111)  -11.2290                      

(X_U1.112)    -.7750                  (X_U1.113)   -1.5446                      

(X_U1.114)    -.7737                  (X_U1.115)    -.7716                      

(X_U1.116)    -.0133                  (X_U1.11A)   11.2300                      

(X_U1.200)-149.4E-06                  (X_U1.111B)  -11.2300                 




    VOLTAGE SOURCE CURRENTS
    NAME         CURRENT

    V_V1        -3.420E-02
    V_V2        -3.420E-02
    V_V4        -4.517E-10

    TOTAL POWER DISSIPATION   8.21E-01  WATTS


**** 10/07/23 01:37:03 ******* PSpice 17.4.0 (Nov 2018) ******* ID# 0 ********

 ** Profile: "SCHEMATIC1-Sweep1"  [ C:\Dev\TAUV-Hardware\TAUV-Acoustics-V2\Simulation\Frontend-Design-Candidates\frontend-design-cand


 ****     SMALL SIGNAL BIAS SOLUTION       TEMPERATURE =   27.000 DEG C

 ****     CURRENT STEP                     PARAM LVAL =    2.0000E-03


******************************************************************************



 NODE   VOLTAGE     NODE   VOLTAGE     NODE   VOLTAGE     NODE   VOLTAGE


(  12V)   12.0000  ( -12V)  -12.0000  (N03290)    0.0000 (N04348)    -.0054     

(N04548)-252.4E-06 (N04690)    -.0054 (X_U1.9)    -.0054 (X_U1.10)     .7712    

(X_U1.11)   11.2290                   (X_U1.12)     .7642                       

(X_U1.13)    1.5338                   (X_U1.14)     .7629                       

(X_U1.15)     .7608                   (X_U1.16)     .0024                       

(X_U1.17)    -.0054                   (X_U1.18)    -.0054                       

(X_U1.3A)    0.0000                   (X_U1.6A)    -.0054                       

(P_N00150)    0.0000                  (P_N00154)    0.0000                      

(X_U1.110)    -.7713                  (X_U1.111)  -11.2290                      

(X_U1.112)    -.7750                  (X_U1.113)   -1.5446                      

(X_U1.114)    -.7737                  (X_U1.115)    -.7716                      

(X_U1.116)    -.0133                  (X_U1.11A)   11.2300                      

(X_U1.200)-149.4E-06                  (X_U1.111B)  -11.2300                 




    VOLTAGE SOURCE CURRENTS
    NAME         CURRENT

    V_V1        -3.420E-02
    V_V2        -3.420E-02
    V_V4        -4.517E-10

    TOTAL POWER DISSIPATION   8.21E-01  WATTS


**** 10/07/23 01:37:03 ******* PSpice 17.4.0 (Nov 2018) ******* ID# 0 ********

 ** Profile: "SCHEMATIC1-Sweep1"  [ C:\Dev\TAUV-Hardware\TAUV-Acoustics-V2\Simulation\Frontend-Design-Candidates\frontend-design-cand


 ****     SMALL SIGNAL BIAS SOLUTION       TEMPERATURE =   27.000 DEG C

 ****     CURRENT STEP                     PARAM LVAL =    2.2500E-03


******************************************************************************



 NODE   VOLTAGE     NODE   VOLTAGE     NODE   VOLTAGE     NODE   VOLTAGE


(  12V)   12.0000  ( -12V)  -12.0000  (N03290)    0.0000 (N04348)    -.0054     

(N04548)-252.4E-06 (N04690)    -.0054 (X_U1.9)    -.0054 (X_U1.10)     .7712    

(X_U1.11)   11.2290                   (X_U1.12)     .7642                       

(X_U1.13)    1.5338                   (X_U1.14)     .7629                       

(X_U1.15)     .7608                   (X_U1.16)     .0024                       

(X_U1.17)    -.0054                   (X_U1.18)    -.0054                       

(X_U1.3A)    0.0000                   (X_U1.6A)    -.0054                       

(P_N00150)    0.0000                  (P_N00154)    0.0000                      

(X_U1.110)    -.7713                  (X_U1.111)  -11.2290                      

(X_U1.112)    -.7750                  (X_U1.113)   -1.5446                      

(X_U1.114)    -.7737                  (X_U1.115)    -.7716                      

(X_U1.116)    -.0133                  (X_U1.11A)   11.2300                      

(X_U1.200)-149.4E-06                  (X_U1.111B)  -11.2300                 




    VOLTAGE SOURCE CURRENTS
    NAME         CURRENT

    V_V1        -3.420E-02
    V_V2        -3.420E-02
    V_V4        -4.517E-10

    TOTAL POWER DISSIPATION   8.21E-01  WATTS


**** 10/07/23 01:37:03 ******* PSpice 17.4.0 (Nov 2018) ******* ID# 0 ********

 ** Profile: "SCHEMATIC1-Sweep1"  [ C:\Dev\TAUV-Hardware\TAUV-Acoustics-V2\Simulation\Frontend-Design-Candidates\frontend-design-cand


 ****     SMALL SIGNAL BIAS SOLUTION       TEMPERATURE =   27.000 DEG C

 ****     CURRENT STEP                     PARAM LVAL =    2.5000E-03


******************************************************************************



 NODE   VOLTAGE     NODE   VOLTAGE     NODE   VOLTAGE     NODE   VOLTAGE


(  12V)   12.0000  ( -12V)  -12.0000  (N03290)    0.0000 (N04348)    -.0054     

(N04548)-252.4E-06 (N04690)    -.0054 (X_U1.9)    -.0054 (X_U1.10)     .7712    

(X_U1.11)   11.2290                   (X_U1.12)     .7642                       

(X_U1.13)    1.5338                   (X_U1.14)     .7629                       

(X_U1.15)     .7608                   (X_U1.16)     .0024                       

(X_U1.17)    -.0054                   (X_U1.18)    -.0054                       

(X_U1.3A)    0.0000                   (X_U1.6A)    -.0054                       

(P_N00150)    0.0000                  (P_N00154)    0.0000                      

(X_U1.110)    -.7713                  (X_U1.111)  -11.2290                      

(X_U1.112)    -.7750                  (X_U1.113)   -1.5446                      

(X_U1.114)    -.7737                  (X_U1.115)    -.7716                      

(X_U1.116)    -.0133                  (X_U1.11A)   11.2300                      

(X_U1.200)-149.4E-06                  (X_U1.111B)  -11.2300                 




    VOLTAGE SOURCE CURRENTS
    NAME         CURRENT

    V_V1        -3.420E-02
    V_V2        -3.420E-02
    V_V4        -4.517E-10

    TOTAL POWER DISSIPATION   8.21E-01  WATTS


**** 10/07/23 01:37:03 ******* PSpice 17.4.0 (Nov 2018) ******* ID# 0 ********

 ** Profile: "SCHEMATIC1-Sweep1"  [ C:\Dev\TAUV-Hardware\TAUV-Acoustics-V2\Simulation\Frontend-Design-Candidates\frontend-design-cand


 ****     SMALL SIGNAL BIAS SOLUTION       TEMPERATURE =   27.000 DEG C

 ****     CURRENT STEP                     PARAM LVAL =    2.7500E-03


******************************************************************************



 NODE   VOLTAGE     NODE   VOLTAGE     NODE   VOLTAGE     NODE   VOLTAGE


(  12V)   12.0000  ( -12V)  -12.0000  (N03290)    0.0000 (N04348)    -.0054     

