
**** 10/07/23 12:42:42 ******* PSpice 17.4.0 (Nov 2018) ******* ID# 0 ********

 ** Profile: "Z-Measurement-Setup-Profile1"  [ C:\Dev\TAUV-Hardware\TAUV-Acoustics-V2\Simulation\Transducer-Characterization\transduc


 ****     CIRCUIT DESCRIPTION


******************************************************************************




** Creating circuit file "Profile1.cir" 
** WARNING: THIS AUTOMATICALLY GENERATED FILE MAY BE OVERWRITTEN BY SUBSEQUENT SIMULATIONS

*Libraries: 
* Profile Libraries :
* Local Libraries :
* From [PSPICE NETLIST] section of C:\Users\Gleb Ryabtsev\AppData\Roaming\SPB_Data\cdssetup\OrCAD_PSpice\17.4.0\PSpice.ini file:
.lib "nom.lib" 

*Analysis directives: 
.AC DEC 100 1k 10Meg
.OPTIONS ADVCONV
.PROBE64 V(alias(*)) I(alias(*)) W(alias(*)) D(alias(*)) NOISE(alias(*)) 
.INC "..\Z-Measurement-Setup.net" 



**** INCLUDING Z-Measurement-Setup.net ****
* source TRANSDUCER-CHARACTERIZATION
X_U1         N00330 N02180 V- V- V+ N00171 N02216 OPA547/BB
V_V2         V+ 0 30Vdc
V_V3         0 V- 30Vdc
V_V4         N00330 0 DC 0Vdc AC 0.5Vac 
R_R4         N02216 0  100k TC=0,0 
R_TD_R1         N01048 TD_N00154  33.4 TC=0,0 
C_TD_C1         TD_N00150 N00171  4.2nF  TC=0,0 
C_TD_C2         N01048 N00171  15.9n  TC=0,0 
L_TD_L1         TD_N00154 TD_N00150  8.9mH  
R_R5         0 N01048  10 TC=0,0 
R_R6         N02180 N00171  1 TC=0,0 

**** RESUMING Profile1.cir ****
.END

**** 10/07/23 12:42:42 ******* PSpice 17.4.0 (Nov 2018) ******* ID# 0 ********

 ** Profile: "Z-Measurement-Setup-Profile1"  [ C:\Dev\TAUV-Hardware\TAUV-Acoustics-V2\Simulation\Transducer-Characterization\transduc


 ****     Diode MODEL PARAMETERS


******************************************************************************




               X_U1.ZEN        X_U1.DIODE      
          IS  600.000000E-18  600.000000E-18 
          BV     .2                          
          RS    1               1            
         CJO    1.000000E-15    1.000000E-15 


**** 10/07/23 12:42:42 ******* PSpice 17.4.0 (Nov 2018) ******* ID# 0 ********

 ** Profile: "Z-Measurement-Setup-Profile1"  [ C:\Dev\TAUV-Hardware\TAUV-Acoustics-V2\Simulation\Transducer-Characterization\transduc


 ****     BJT MODEL PARAMETERS


******************************************************************************




               X_U1.LAT5       X_U1.PSUB       X_U1.NMAX       X_U1.NMIN       
               PNP             PNP             NPN             NPN             
       LEVEL    1               1               1               1            
          IS    4.000000E-15  600.000000E-18  600.000000E-18  600.000000E-18 
          BF   80             360               1.200000E+03  300            
          NF    1               1               1               1            
         VAF   80             140             140             140            
          BR    1               1               1               1            
          NR    1               1               1               1            
         ISS    0               0               0               0            
          RE    0               0               0               0            
          RC    1.200000E+03    1.200000E+03    1.000000E+03    1.000000E+03 
         CJE  100.000000E-15  500.000000E-15  500.000000E-15  500.000000E-15 
         VJE     .75             .75             .75             .75         
         CJC  600.000000E-15  250.000000E-15  250.000000E-15  250.000000E-15 
         VJC     .75             .75             .75             .75         
         MJC     .33             .33             .33             .33         
        XCJC    1               1               1               1            
         CJS    0               0               0               0            
         VJS     .75             .75             .75             .75         
          TF   35.000000E-09  250.000000E-12  250.000000E-12  250.000000E-12 
          KF    0               0               0               0            
          AF    1               1               1               1            
          CN    2.2             2.2             2.42            2.42         
           D     .52             .52             .87             .87         


**** 10/07/23 12:42:42 ******* PSpice 17.4.0 (Nov 2018) ******* ID# 0 ********

 ** Profile: "Z-Measurement-Setup-Profile1"  [ C:\Dev\TAUV-Hardware\TAUV-Acoustics-V2\Simulation\Transducer-Characterization\transduc


 ****     Voltage Controlled Switch MODEL PARAMETERS


******************************************************************************




               X_U1.VSM2       X_U1.VSM        
         RON    1.500000E+03     .1          
        ROFF   10.000000E+06  500.000000E+03 
         VON    1.9             2.1          
        VOFF    2.1             1.9          


**** 10/07/23 12:42:42 ******* PSpice 17.4.0 (Nov 2018) ******* ID# 0 ********

 ** Profile: "Z-Measurement-Setup-Profile1"  [ C:\Dev\TAUV-Hardware\TAUV-Acoustics-V2\Simulation\Transducer-Characterization\transduc


 ****     SMALL SIGNAL BIAS SOLUTION       TEMPERATURE =   27.000 DEG C


******************************************************************************



 NODE   VOLTAGE     NODE   VOLTAGE     NODE   VOLTAGE     NODE   VOLTAGE


(   V+)   30.0000  (   V-)  -30.0000  (N00171) 762.5E-06 (N00330)    0.0000     

(N01048)    0.0000 (N02180) 762.6E-06 (N02216)   -8.5714 (X_U1.9)   28.6000     

(X_U1.10)   28.5010                   (X_U1.11)   28.4930                       

(X_U1.12)   27.8790                   (X_U1.13)    1.0940                       

(X_U1.14)     .6478                   (X_U1.15)     .6471                       

(X_U1.16) 883.9E-06                   (X_U1.17) 121.5E-06                       

(X_U1.18)  -29.9470                   (X_U1.19)  -29.9470                       

(X_U1.20)  -30.0000                   (X_U1.21)  -30.0000                       

(X_U1.22)   29.3010                   (X_U1.23)   29.9410                       

(X_U1.24)   29.9330                   (X_U1.25)    1.2755                       

(X_U1.26)  -29.3340                   (X_U1.27)  -29.2000                       

(X_U1.28)  -29.8510                   (X_U1.29)  -29.1650                       

(X_U1.30)  -29.8520                   (X_U1.31)    -.0079                       

(X_U1.32)     .6270                   (X_U1.33)    1.2732                       

(X_U1.34)     .6188                   (X_U1.35)     .0037                       

(X_U1.36) 762.5E-06                   (X_U1.37)  -28.7440                       

(X_U1.38)  -29.3790                   (X_U1.39)  -29.3810                       

(X_U1.40)  -29.9970                   (X_U1.41)  -29.9970                       

(X_U1.42)  -29.6990                   (X_U1.43)  -25.2500                       

(X_U1.44)  -28.0000                   (X_U1.45)  -25.7450                       

(X_U1.46)  -26.4000                   (X_U1.47)     .3014                       

(X_U1.48)     .6507                   (X_U1.49)  -29.3500                       

(X_U1.51)     .0032                   (TD_N00150)    0.0000                     

(TD_N00154)    0.0000                 




    VOLTAGE SOURCE CURRENTS
    NAME         CURRENT

    V_V2        -9.739E-03
    V_V3        -9.825E-03
    V_V4         1.215E-07
    X_U1.VCLMP   1.705E-13
    X_U1.VDUM    0.000E+00
    X_U1.V475   -1.503E-04
    X_U1.VDP    -4.465E-05
    X_U1.V1I459  -4.463E-05
    X_U1.VCM     2.063E-04
    X_U1.VBES    6.000E-05
    X_U1.VTHES   4.510E-12

    TOTAL POWER DISSIPATION   5.87E-01  WATTS



          JOB CONCLUDED

**** 10/07/23 12:42:42 ******* PSpice 17.4.0 (Nov 2018) ******* ID# 0 ********

 ** Profile: "Z-Measurement-Setup-Profile1"  [ C:\Dev\TAUV-Hardware\TAUV-Acoustics-V2\Simulation\Transducer-Characterization\transduc


 ****     JOB STATISTICS SUMMARY


******************************************************************************



  License check-out time            =        1.33
  Total job time (using Solver 1)   =         .06
